<Qucs Dataset 0.0.16>
<indep time 11>
  +0.00000000000e+000
  +4.00000000000e-005
  +8.00000000000e-005
  +1.20000000000e-004
  +1.60000000000e-004
  +2.00000000000e-004
  +2.40000000000e-004
  +2.80000000000e-004
  +3.20000000000e-004
  +3.60000000000e-004
  +4.00000000000e-004
</indep>
<dep Pr1.Vt time>
  +1.00000082184e+001
  +1.08480086877e+001
  +9.09903732370e+000
  +9.11797836876e+000
  +9.25083940318e+000
  +1.08975864586e+001
  +1.08745569629e+001
  +9.09420962851e+000
  +9.10891470840e+000
  +9.14185919546e+000
  +1.09029334336e+001
</dep>
<dep V1.It time>
  -1.82192925957e-001
  -1.98705856272e-001
  -1.81546217231e-001
  -1.81676410079e-001
  -1.81834383785e-001
  -1.99495960415e-001
  -1.99165876260e-001
  -1.81502598439e-001
  -1.81621868593e-001
  -1.81766376072e-001
  -1.99560028891e-001
</dep>
<dep _net0.Vt time>
  +1.00000000000e+001
  +1.00000000000e+001
  +1.00000000000e+001
  +1.00000000000e+001
  +1.00000000000e+001
  +1.00000000000e+001
  +1.00000000000e+001
  +1.00000000000e+001
  +1.00000000000e+001
  +1.00000000000e+001
  +1.00000000000e+001
</dep>
<dep Output.Vt time>
  +1.00000082184e+001
  +1.08480086877e+001
  +9.09903732370e+000
  +9.11797836876e+000
  +9.25083940318e+000
  +1.08975864586e+001
  +1.08745569629e+001
  +9.09420962851e+000
  +9.10891470840e+000
  +9.14185919546e+000
  +1.09029334336e+001
</dep>
<dep _net1.Vt time>
  +9.10964629785e+000
  +9.93529281359e+000
  +9.07731086157e+000
  +9.08382050397e+000
  +9.09171918923e+000
  +9.97479802074e+000
  +9.95827087482e+000
  +9.07512992197e+000
  +9.08109342965e+000
  +9.08831880359e+000
  +9.97800144457e+000
</dep>
